
T12B4 000:048 SEGGER J-Link V6.10i Log File (0000ms, 0031ms total)
T12B4 000:048 DLL Compiled: Oct 25 2016 19:31:51 (0000ms, 0031ms total)
T12B4 000:048 Logging started @ 2020-05-06 11:39 (0000ms, 0031ms total)
T12B4 000:048 JLINK_SetWarnOutHandler(...) (0000ms, 0031ms total)
T12B4 000:048 JLINK_OpenEx(...)
Firmware: J-Link ARM-OB STM32 compiled Aug 22 2012 19:52:04
Hardware: V7.00
S/N: 20090928
Feature(s): RDI,FlashDL,FlashBP,JFlash,GDBFullWEBSRV Webserver running on local port 19080 (0021ms, 0052ms total)
T12B4 000:048   returns O.K. (0021ms, 0052ms total)
T12B4 000:069 JLINK_SetErrorOutHandler(...) (0000ms, 0052ms total)
T12B4 000:069 JLINK_ExecCommand("ProjectFile = "E:\项目\2019年项目汇总\CG产品程序\分机所有文件\SlaverOfSmart191216_FSK_LWP-new_hardware\USER\JLinkSettings.ini"", ...).   returns 0x00 (0116ms, 0168ms total)
T12B4 000:190 JLINK_ExecCommand("Device = STM32F103C8", ...). Device "STM32F103C8" selected.  returns 0x00 (0005ms, 0173ms total)
T12B4 000:195 JLINK_ExecCommand("DisableConnectionTimeout", ...).   returns 0x01 (0000ms, 0173ms total)
T12B4 000:195 JLINK_GetHardwareVersion()  returns 0x11170 (0000ms, 0173ms total)
T12B4 000:195 JLINK_GetDLLVersion()  returns 61009 (0000ms, 0173ms total)
T12B4 000:195 JLINK_GetFirmwareString(...) (0000ms, 0173ms total)
T12B4 000:208 JLINK_GetDLLVersion()  returns 61009 (0000ms, 0173ms total)
T12B4 000:208 JLINK_GetCompileDateTime() (0000ms, 0173ms total)
T12B4 000:212 JLINK_GetFirmwareString(...) (0000ms, 0173ms total)
T12B4 000:217 JLINK_GetHardwareVersion()  returns 0x11170 (0000ms, 0173ms total)
T12B4 000:234 JLINK_TIF_Select(JLINKARM_TIF_SWD)  returns 0x00 (0003ms, 0176ms total)
T12B4 000:237 JLINK_SetSpeed(5000) (0001ms, 0177ms total)
T12B4 000:238 JLINK_GetId() >0x108 TIF>Found SWD-DP with ID 0x1BA01477 >0x0D TIF> >0x28 TIF> >0x0D TIF> >0x28 TIF> >0x0D TIF> >0x28 TIF> >0x0D TIF> >0x28 TIF> >0x0D TIF> >0x21 TIF> >0x0D TIF> >0x28 TIF> >0x0D TIF> >0x28 TIF> >0x0D TIF> >0x28 TIF> >0x0D TIF> >0x21 TIF> >0x0D TIF> >0x21 TIF> >0x0D TIF> >0x28 TIF> >0x0D TIF> >0x21 TIF> >0x0D TIF> >0x21 TIF> >0x0D TIF> >0x28 TIF> >0x0D TIF> >0x28 TIF> >0x0D TIF> >0x28 TIF> >0x0D TIF> >0x21 TIF> >0x0D TIF> >0x21 TIF> >0x0D TIF> >0x28 TIF> >0x0D TIF>
 >0x21 TIF> >0x0D TIF> >0x21 TIF> >0x0D TIF> >0x28 TIF> >0x0D TIF> >0x21 TIF> >0x0D TIF> >0x21 TIF> >0x0D TIF> >0x28 TIF> >0x0D TIF> >0x21 TIF> >0x0D TIF> >0x21 TIF> >0x0D TIF> >0x28 TIF> >0x0D TIF> >0x21 TIF> >0x0D TIF> >0x21 TIF> >0x108 TIF>Found SWD-DP with ID 0x1BA01477 >0x0D TIF> >0x28 TIF> >0x0D TIF> >0x28 TIF> >0x0D TIF> >0x28 TIF> >0x0D TIF> >0x28 TIF> >0x0D TIF> >0x21 TIF> >0x0D TIF> >0x28 TIF> >0x0D TIF> >0x28 TIF> >0x0D TIF> >0x21 TIF> >0x0D TIF> >0x21 TIF> >0x0D TIF> >0x21 TIF>
AP-IDR: 0x14770011, Type: AHB-AP >0x0D TIF> >0x28 TIF> >0x0D TIF> >0x28 TIF> >0x0D TIF> >0x28 TIF> >0x0D TIF> >0x21 TIF> >0x0D TIF> >0x21 TIF> >0x0D TIF> >0x28 TIF> >0x0D TIF> >0x21 TIF> >0x0D TIF> >0x21 TIF>Found Cortex-M3 r1p1, Little endian. -- CPU_ReadMem(4 bytes @ 0xE000EDF0) -- CPU_WriteMem(4 bytes @ 0xE000EDF0) -- CPU_ReadMem(4 bytes @ 0xE0002000)FPUnit: 6 code (BP) slots and 2 literal slots -- CPU_ReadMem(4 bytes @ 0xE000EDFC) -- CPU_WriteMem(4 bytes @ 0xE000EDFC)
 -- CPU_ReadMem(4 bytes @ 0xE0001000) -- CPU_WriteMem(4 bytes @ 0xE0001000) -- CPU_ReadMem(4 bytes @ 0xE000ED88) -- CPU_WriteMem(4 bytes @ 0xE000ED88) -- CPU_ReadMem(4 bytes @ 0xE000ED88) -- CPU_WriteMem(4 bytes @ 0xE000ED88)CoreSight components:ROMTbl 0 @ E00FF000 -- CPU_ReadMem(16 bytes @ 0xE00FF000) -- CPU_ReadMem(16 bytes @ 0xE000EFF0) -- CPU_ReadMem(16 bytes @ 0xE000EFE0)ROMTbl 0 [0]: FFF0F000, CID: B105E00D, PID: 001BB000 SCS -- CPU_ReadMem(16 bytes @ 0xE0001FF0)
 -- CPU_ReadMem(16 bytes @ 0xE0001FE0)ROMTbl 0 [1]: FFF02000, CID: B105E00D, PID: 001BB002 DWT -- CPU_ReadMem(16 bytes @ 0xE0002FF0) -- CPU_ReadMem(16 bytes @ 0xE0002FE0)ROMTbl 0 [2]: FFF03000, CID: B105E00D, PID: 000BB003 FPB -- CPU_ReadMem(16 bytes @ 0xE0000FF0) -- CPU_ReadMem(16 bytes @ 0xE0000FE0)ROMTbl 0 [3]: FFF01000, CID: B105E00D, PID: 001BB001 ITM -- CPU_ReadMem(16 bytes @ 0xE00FF010) -- CPU_ReadMem(16 bytes @ 0xE0040FF0) -- CPU_ReadMem(16 bytes @ 0xE0040FE0)
ROMTbl 0 [4]: FFF41000, CID: B105900D, PID: 001BB923 TPIU-Lite >0x0D TIF> >0x21 TIF>  returns 0x1BA01477 (0176ms, 0353ms total)
T12B4 000:414 JLINK_GetDLLVersion()  returns 61009 (0000ms, 0353ms total)
T12B4 000:414 JLINK_CORE_GetFound()  returns 0x30000FF (0000ms, 0353ms total)
T12B4 000:414 JLINK_GetDebugInfo(0x100) -- Value=0xE00FF000  returns 0x00 (0000ms, 0353ms total)
T12B4 000:417 JLINK_GetDebugInfo(0x100) -- Value=0xE00FF000  returns 0x00 (0000ms, 0353ms total)
T12B4 000:417 JLINK_GetDebugInfo(0x101) -- Value=0x00000000  returns 0x00 (0000ms, 0353ms total)
T12B4 000:417 JLINK_ReadMem (0xE0041FF0, 0x0010 Bytes, ...) -- CPU is running -- CPU_ReadMem(16 bytes @ 0xE0041FF0) - Data: 00 00 00 00 00 00 00 00 00 00 00 00 00 00 00 00  returns 0x00 (0002ms, 0355ms total)
T12B4 000:419 JLINK_GetDebugInfo(0x102) -- Value=0x00000000  returns 0x00 (0000ms, 0355ms total)
T12B4 000:419 JLINK_GetDebugInfo(0x103) -- Value=0xE0040000  returns 0x00 (0000ms, 0355ms total)
T12B4 000:419 JLINK_GetDebugInfo(0x104) -- Value=0xE0000000  returns 0x00 (0000ms, 0355ms total)
T12B4 000:419 JLINK_GetDebugInfo(0x105) -- Value=0xE0001000  returns 0x00 (0000ms, 0355ms total)
T12B4 000:419 JLINK_GetDebugInfo(0x106) -- Value=0xE0002000  returns 0x00 (0000ms, 0355ms total)
T12B4 000:419 JLINK_GetDebugInfo(0x107) -- Value=0xE000E000  returns 0x00 (0000ms, 0355ms total)
T12B4 000:419 JLINK_GetDebugInfo(0x10C) -- Value=0xE000EDF0  returns 0x00 (0000ms, 0355ms total)
T12B4 000:419 JLINK_ReadMemU32(0xE000ED00, 0x0001 Items, ...) -- CPU is running -- CPU_ReadMem(4 bytes @ 0xE000ED00) - Data: 31 C2 1F 41  returns 0x01 (0001ms, 0356ms total)
T12B4 000:420 JLINK_SetResetType(JLINKARM_RESET_TYPE_NORMAL)  returns JLINKARM_RESET_TYPE_NORMAL (0000ms, 0356ms total)
T12B4 000:420 JLINK_Reset() -- CPU is running -- CPU_WriteMem(4 bytes @ 0xE000EDF0) -- CPU is running -- CPU_WriteMem(4 bytes @ 0xE000EDFC) >0x35 TIF> -- CPU is running -- CPU_WriteMem(4 bytes @ 0xE000ED0C) -- CPU is running -- CPU_ReadMem(4 bytes @ 0xE000EDF0) -- CPU is running -- CPU_ReadMem(4 bytes @ 0xE000EDF0) -- CPU is running -- CPU_WriteMem(4 bytes @ 0xE000EDF0) -- CPU is running -- CPU_WriteMem(4 bytes @ 0xE000EDFC) -- CPU is running -- CPU_ReadMem(4 bytes @ 0xE000EDF0)
 -- CPU_WriteMem(4 bytes @ 0xE0002000) -- CPU_ReadMem(4 bytes @ 0xE000EDFC) -- CPU_ReadMem(4 bytes @ 0xE0001000) (0024ms, 0380ms total)
T12B4 000:444 JLINK_Halt()  returns 0x00 (0000ms, 0380ms total)
T12B4 000:444 JLINK_IsHalted()  returns TRUE (0000ms, 0380ms total)
T12B4 000:444 JLINK_ReadMemU32(0xE000EDF0, 0x0001 Items, ...) -- CPU_ReadMem(4 bytes @ 0xE000EDF0) - Data: 03 00 03 00  returns 0x01 (0001ms, 0381ms total)
T12B4 000:445 JLINK_WriteU32(0xE000EDF0, 0xA05F0003) -- CPU_WriteMem(4 bytes @ 0xE000EDF0)  returns 0x00 (0001ms, 0382ms total)
T12B4 000:446 JLINK_WriteU32(0xE000EDFC, 0x01000000) -- CPU_WriteMem(4 bytes @ 0xE000EDFC)  returns 0x00 (0001ms, 0383ms total)
T12B4 000:462 JLINK_GetHWStatus(...)  returns 0x00 (0001ms, 0384ms total)
T12B4 000:473 JLINK_GetNumBPUnits(Type = 0xFFFFFF00)  returns 0x06 (0000ms, 0384ms total)
T12B4 000:473 JLINK_GetNumBPUnits(Type = 0xF0)  returns 0x2000 (0000ms, 0384ms total)
T12B4 000:473 JLINK_GetNumWPUnits()  returns 0x04 (0000ms, 0384ms total)
T12B4 000:485 JLINK_GetSpeed()  returns 0xFA0 (0000ms, 0384ms total)
T12B4 000:491 JLINK_ReadMemU32(0xE000E004, 0x0001 Items, ...) -- CPU_ReadMem(4 bytes @ 0xE000E004) - Data: 01 00 00 00  returns 0x01 (0001ms, 0385ms total)
T12B4 000:492 JLINK_ReadMemU32(0xE000E004, 0x0001 Items, ...) -- CPU_ReadMem(4 bytes @ 0xE000E004) - Data: 01 00 00 00  returns 0x01 (0001ms, 0386ms total)
T12B4 000:493 JLINK_WriteMem(0xE0001000, 0x001C Bytes, ...) - Data: 01 00 00 00 00 00 00 00 00 00 00 00 00 00 00 00 ... -- CPU_WriteMem(28 bytes @ 0xE0001000)  returns 0x1C (0002ms, 0388ms total)
T12B4 000:495 JLINK_ReadMem (0xE0001000, 0x001C Bytes, ...) -- CPU_ReadMem(28 bytes @ 0xE0001000) - Data: 01 00 00 40 00 00 00 00 00 00 00 00 00 00 00 00 ...  returns 0x00 (0001ms, 0389ms total)
T12B4 000:496 JLINK_Halt()  returns 0x00 (0000ms, 0389ms total)
T12B4 000:496 JLINK_IsHalted()  returns TRUE (0000ms, 0389ms total)
T12B4 000:499 JLINK_WriteMem(0x20000000, 0x0164 Bytes, ...) - Data: 00 BE 0A E0 0D 78 2D 06 68 40 08 24 40 00 00 D3 ... -- CPU_WriteMem(356 bytes @ 0x20000000)  returns 0x164 (0006ms, 0395ms total)
T12B4 000:505 JLINK_WriteReg(R0, 0x08000000)  returns 0x00 (0000ms, 0395ms total)
T12B4 000:505 JLINK_WriteReg(R1, 0x00B71B00)  returns 0x00 (0000ms, 0395ms total)
T12B4 000:505 JLINK_WriteReg(R2, 0x00000001)  returns 0x00 (0000ms, 0395ms total)
T12B4 000:505 JLINK_WriteReg(R3, 0x00000000)  returns 0x00 (0000ms, 0395ms total)
T12B4 000:505 JLINK_WriteReg(R4, 0x00000000)  returns 0x00 (0000ms, 0395ms total)
T12B4 000:505 JLINK_WriteReg(R5, 0x00000000)  returns 0x00 (0000ms, 0395ms total)
T12B4 000:505 JLINK_WriteReg(R6, 0x00000000)  returns 0x00 (0000ms, 0395ms total)
T12B4 000:505 JLINK_WriteReg(R7, 0x00000000)  returns 0x00 (0000ms, 0395ms total)
T12B4 000:505 JLINK_WriteReg(R8, 0x00000000)  returns 0x00 (0000ms, 0395ms total)
T12B4 000:505 JLINK_WriteReg(R9, 0x20000160)  returns 0x00 (0000ms, 0395ms total)
T12B4 000:505 JLINK_WriteReg(R10, 0x00000000)  returns 0x00 (0000ms, 0395ms total)
T12B4 000:505 JLINK_WriteReg(R11, 0x00000000)  returns 0x00 (0000ms, 0395ms total)
T12B4 000:505 JLINK_WriteReg(R12, 0x00000000)  returns 0x00 (0000ms, 0395ms total)
T12B4 000:505 JLINK_WriteReg(R13 (SP), 0x20000800)  returns 0x00 (0000ms, 0395ms total)
T12B4 000:505 JLINK_WriteReg(R14, 0x20000001)  returns 0x00 (0000ms, 0395ms total)
T12B4 000:505 JLINK_WriteReg(R15 (PC), 0x20000038)  returns 0x00 (0000ms, 0395ms total)
T12B4 000:505 JLINK_WriteReg(XPSR, 0x01000000)  returns 0x00 (0000ms, 0395ms total)
T12B4 000:505 JLINK_WriteReg(MSP, 0x20000800)  returns 0x00 (0000ms, 0395ms total)
T12B4 000:505 JLINK_WriteReg(PSP, 0x20000800)  returns 0x00 (0000ms, 0395ms total)
T12B4 000:505 JLINK_WriteReg(CFBP, 0x00000000)  returns 0x00 (0000ms, 0395ms total)
T12B4 000:505 JLINK_SetBPEx(Addr = 0x20000000, Type = 0xFFFFFFF2) -- CPU_ReadMem(2 bytes @ 0x20000000)  returns 0x00000001 (0002ms, 0397ms total)
T12B4 000:507 JLINK_Go() -- CPU_WriteMem(2 bytes @ 0x20000000) -- CPU_ReadMem(4 bytes @ 0xE0001000) -- CPU_WriteMem(4 bytes @ 0xE0002008) -- CPU_WriteMem(4 bytes @ 0xE000200C) -- CPU_WriteMem(4 bytes @ 0xE0002010) -- CPU_WriteMem(4 bytes @ 0xE0002014) -- CPU_WriteMem(4 bytes @ 0xE0002018) -- CPU_WriteMem(4 bytes @ 0xE000201C) -- CPU_WriteMem(4 bytes @ 0xE0001004) (0013ms, 0410ms total)
T12B4 000:520 JLINK_IsHalted() -- CPU_ReadMem(2 bytes @ 0x20000000)  returns TRUE (0005ms, 0415ms total)
T12B4 000:525 JLINK_ReadReg(R15 (PC))  returns 0x20000000 (0000ms, 0410ms total)
T12B4 000:525 JLINK_ClrBPEx(BPHandle = 0x00000001)  returns 0x00 (0000ms, 0410ms total)
T12B4 000:525 JLINK_ReadReg(R0)  returns 0x00000000 (0000ms, 0410ms total)
T12B4 000:525 JLINK_WriteReg(R0, 0x08000000)  returns 0x00 (0000ms, 0410ms total)
T12B4 000:525 JLINK_WriteReg(R1, 0x00B71B00)  returns 0x00 (0000ms, 0410ms total)
T12B4 000:525 JLINK_WriteReg(R2, 0x00000001)  returns 0x00 (0000ms, 0410ms total)
T12B4 000:525 JLINK_WriteReg(R3, 0x00000000)  returns 0x00 (0000ms, 0410ms total)
T12B4 000:525 JLINK_WriteReg(R4, 0x00000000)  returns 0x00 (0000ms, 0410ms total)
T12B4 000:525 JLINK_WriteReg(R5, 0x00000000)  returns 0x00 (0000ms, 0410ms total)
T12B4 000:525 JLINK_WriteReg(R6, 0x00000000)  returns 0x00 (0001ms, 0411ms total)
T12B4 000:526 JLINK_WriteReg(R7, 0x00000000)  returns 0x00 (0000ms, 0411ms total)
T12B4 000:526 JLINK_WriteReg(R8, 0x00000000)  returns 0x00 (0000ms, 0411ms total)
T12B4 000:526 JLINK_WriteReg(R9, 0x20000160)  returns 0x00 (0000ms, 0411ms total)
T12B4 000:526 JLINK_WriteReg(R10, 0x00000000)  returns 0x00 (0000ms, 0411ms total)
T12B4 000:526 JLINK_WriteReg(R11, 0x00000000)  returns 0x00 (0000ms, 0411ms total)
T12B4 000:526 JLINK_WriteReg(R12, 0x00000000)  returns 0x00 (0000ms, 0411ms total)
T12B4 000:526 JLINK_WriteReg(R13 (SP), 0x20000800)  returns 0x00 (0000ms, 0411ms total)
T12B4 000:526 JLINK_WriteReg(R14, 0x20000001)  returns 0x00 (0000ms, 0411ms total)
T12B4 000:526 JLINK_WriteReg(R15 (PC), 0x2000007C)  returns 0x00 (0000ms, 0411ms total)
T12B4 000:526 JLINK_WriteReg(XPSR, 0x01000000)  returns 0x00 (0000ms, 0411ms total)
T12B4 000:526 JLINK_WriteReg(MSP, 0x20000800)  returns 0x00 (0000ms, 0411ms total)
T12B4 000:526 JLINK_WriteReg(PSP, 0x20000800)  returns 0x00 (0000ms, 0411ms total)
T12B4 000:526 JLINK_WriteReg(CFBP, 0x00000000)  returns 0x00 (0000ms, 0411ms total)
T12B4 000:526 JLINK_SetBPEx(Addr = 0x20000000, Type = 0xFFFFFFF2)  returns 0x00000002 (0000ms, 0411ms total)
T12B4 000:526 JLINK_Go() -- CPU_ReadMem(4 bytes @ 0xE0001000) (0004ms, 0415ms total)
T12B4 000:530 JLINK_IsHalted()  returns FALSE (0001ms, 0416ms total)
T12B4 000:560 JLINK_IsHalted() -- CPU_ReadMem(2 bytes @ 0x20000000)  returns TRUE (0005ms, 0420ms total)
T12B4 000:565 JLINK_ReadReg(R15 (PC))  returns 0x20000000 (0000ms, 0415ms total)
T12B4 000:565 JLINK_ClrBPEx(BPHandle = 0x00000002)  returns 0x00 (0000ms, 0415ms total)
T12B4 000:565 JLINK_ReadReg(R0)  returns 0x00000000 (0000ms, 0415ms total)
T12B4 000:616 JLINK_WriteReg(R0, 0x00000001)  returns 0x00 (0000ms, 0415ms total)
T12B4 000:616 JLINK_WriteReg(R1, 0x00B71B00)  returns 0x00 (0000ms, 0415ms total)
T12B4 000:616 JLINK_WriteReg(R2, 0x00000001)  returns 0x00 (0001ms, 0416ms total)
T12B4 000:617 JLINK_WriteReg(R3, 0x00000000)  returns 0x00 (0000ms, 0416ms total)
T12B4 000:617 JLINK_WriteReg(R4, 0x00000000)  returns 0x00 (0000ms, 0416ms total)
T12B4 000:617 JLINK_WriteReg(R5, 0x00000000)  returns 0x00 (0000ms, 0416ms total)
T12B4 000:617 JLINK_WriteReg(R6, 0x00000000)  returns 0x00 (0000ms, 0416ms total)
T12B4 000:617 JLINK_WriteReg(R7, 0x00000000)  returns 0x00 (0000ms, 0416ms total)
T12B4 000:617 JLINK_WriteReg(R8, 0x00000000)  returns 0x00 (0000ms, 0416ms total)
T12B4 000:617 JLINK_WriteReg(R9, 0x20000160)  returns 0x00 (0000ms, 0416ms total)
T12B4 000:617 JLINK_WriteReg(R10, 0x00000000)  returns 0x00 (0000ms, 0416ms total)
T12B4 000:617 JLINK_WriteReg(R11, 0x00000000)  returns 0x00 (0000ms, 0416ms total)
T12B4 000:617 JLINK_WriteReg(R12, 0x00000000)  returns 0x00 (0000ms, 0416ms total)
T12B4 000:617 JLINK_WriteReg(R13 (SP), 0x20000800)  returns 0x00 (0000ms, 0416ms total)
T12B4 000:617 JLINK_WriteReg(R14, 0x20000001)  returns 0x00 (0000ms, 0416ms total)
T12B4 000:617 JLINK_WriteReg(R15 (PC), 0x2000006A)  returns 0x00 (0000ms, 0416ms total)
T12B4 000:617 JLINK_WriteReg(XPSR, 0x01000000)  returns 0x00 (0000ms, 0416ms total)
T12B4 000:618 JLINK_WriteReg(MSP, 0x20000800)  returns 0x00 (0000ms, 0417ms total)
T12B4 000:618 JLINK_WriteReg(PSP, 0x20000800)  returns 0x00 (0000ms, 0417ms total)
T12B4 000:618 JLINK_WriteReg(CFBP, 0x00000000)  returns 0x00 (0000ms, 0417ms total)
T12B4 000:618 JLINK_SetBPEx(Addr = 0x20000000, Type = 0xFFFFFFF2)  returns 0x00000003 (0000ms, 0417ms total)
T12B4 000:618 JLINK_Go() -- CPU_ReadMem(4 bytes @ 0xE0001000) (0004ms, 0421ms total)
T12B4 000:622 JLINK_IsHalted() -- CPU_ReadMem(2 bytes @ 0x20000000)  returns TRUE (0006ms, 0427ms total)
T12B4 000:628 JLINK_ReadReg(R15 (PC))  returns 0x20000000 (0000ms, 0421ms total)
T12B4 000:628 JLINK_ClrBPEx(BPHandle = 0x00000003)  returns 0x00 (0000ms, 0421ms total)
T12B4 000:628 JLINK_ReadReg(R0)  returns 0x00000000 (0000ms, 0421ms total)
T12B4 000:643 JLINK_WriteMem(0x20000000, 0x0164 Bytes, ...) - Data: 00 BE 0A E0 0D 78 2D 06 68 40 08 24 40 00 00 D3 ... -- CPU_WriteMem(356 bytes @ 0x20000000)  returns 0x164 (0006ms, 0427ms total)
T12B4 000:649 JLINK_WriteReg(R0, 0x08000000)  returns 0x00 (0000ms, 0427ms total)
T12B4 000:649 JLINK_WriteReg(R1, 0x00B71B00)  returns 0x00 (0000ms, 0427ms total)
T12B4 000:649 JLINK_WriteReg(R2, 0x00000002)  returns 0x00 (0000ms, 0427ms total)
T12B4 000:649 JLINK_WriteReg(R3, 0x00000000)  returns 0x00 (0000ms, 0427ms total)
T12B4 000:649 JLINK_WriteReg(R4, 0x00000000)  returns 0x00 (0000ms, 0427ms total)
T12B4 000:649 JLINK_WriteReg(R5, 0x00000000)  returns 0x00 (0000ms, 0427ms total)
T12B4 000:649 JLINK_WriteReg(R6, 0x00000000)  returns 0x00 (0001ms, 0428ms total)
T12B4 000:650 JLINK_WriteReg(R7, 0x00000000)  returns 0x00 (0000ms, 0428ms total)
T12B4 000:650 JLINK_WriteReg(R8, 0x00000000)  returns 0x00 (0000ms, 0428ms total)
T12B4 000:650 JLINK_WriteReg(R9, 0x20000160)  returns 0x00 (0000ms, 0428ms total)
T12B4 000:650 JLINK_WriteReg(R10, 0x00000000)  returns 0x00 (0000ms, 0428ms total)
T12B4 000:650 JLINK_WriteReg(R11, 0x00000000)  returns 0x00 (0000ms, 0428ms total)
T12B4 000:650 JLINK_WriteReg(R12, 0x00000000)  returns 0x00 (0000ms, 0428ms total)
T12B4 000:650 JLINK_WriteReg(R13 (SP), 0x20000800)  returns 0x00 (0000ms, 0428ms total)
T12B4 000:650 JLINK_WriteReg(R14, 0x20000001)  returns 0x00 (0000ms, 0428ms total)
T12B4 000:650 JLINK_WriteReg(R15 (PC), 0x20000038)  returns 0x00 (0000ms, 0428ms total)
T12B4 000:650 JLINK_WriteReg(XPSR, 0x01000000)  returns 0x00 (0000ms, 0428ms total)
T12B4 000:650 JLINK_WriteReg(MSP, 0x20000800)  returns 0x00 (0000ms, 0428ms total)
T12B4 000:650 JLINK_WriteReg(PSP, 0x20000800)  returns 0x00 (0001ms, 0429ms total)
T12B4 000:651 JLINK_WriteReg(CFBP, 0x00000000)  returns 0x00 (0000ms, 0429ms total)
T12B4 000:651 JLINK_SetBPEx(Addr = 0x20000000, Type = 0xFFFFFFF2) -- CPU_ReadMem(2 bytes @ 0x20000000)  returns 0x00000004 (0001ms, 0430ms total)
T12B4 000:652 JLINK_Go() -- CPU_WriteMem(2 bytes @ 0x20000000) -- CPU_ReadMem(4 bytes @ 0xE0001000) (0005ms, 0435ms total)
T12B4 000:657 JLINK_IsHalted() -- CPU_ReadMem(2 bytes @ 0x20000000)  returns TRUE (0007ms, 0442ms total)
T12B4 000:664 JLINK_ReadReg(R15 (PC))  returns 0x20000000 (0000ms, 0435ms total)
T12B4 000:664 JLINK_ClrBPEx(BPHandle = 0x00000004)  returns 0x00 (0000ms, 0435ms total)
T12B4 000:664 JLINK_ReadReg(R0)  returns 0x00000000 (0000ms, 0435ms total)
T12B4 000:665 JLINK_WriteMem(0x20000164, 0x0400 Bytes, ...) - Data: 08 12 00 20 01 02 00 08 8D 03 00 08 8F 03 00 08 ... -- CPU_WriteMem(1024 bytes @ 0x20000164)  returns 0x400 (0013ms, 0448ms total)
T12B4 000:678 JLINK_WriteReg(R0, 0x08000000)  returns 0x00 (0000ms, 0448ms total)
T12B4 000:678 JLINK_WriteReg(R1, 0x00000400)  returns 0x00 (0000ms, 0448ms total)
T12B4 000:678 JLINK_WriteReg(R2, 0x20000164)  returns 0x00 (0000ms, 0448ms total)
T12B4 000:678 JLINK_WriteReg(R3, 0x00000000)  returns 0x00 (0000ms, 0448ms total)
T12B4 000:678 JLINK_WriteReg(R4, 0x00000000)  returns 0x00 (0001ms, 0449ms total)
T12B4 000:679 JLINK_WriteReg(R5, 0x00000000)  returns 0x00 (0000ms, 0449ms total)
T12B4 000:679 JLINK_WriteReg(R6, 0x00000000)  returns 0x00 (0000ms, 0449ms total)
T12B4 000:679 JLINK_WriteReg(R7, 0x00000000)  returns 0x00 (0000ms, 0449ms total)
T12B4 000:679 JLINK_WriteReg(R8, 0x00000000)  returns 0x00 (0000ms, 0449ms total)
T12B4 000:679 JLINK_WriteReg(R9, 0x20000160)  returns 0x00 (0000ms, 0449ms total)
T12B4 000:679 JLINK_WriteReg(R10, 0x00000000)  returns 0x00 (0000ms, 0449ms total)
T12B4 000:679 JLINK_WriteReg(R11, 0x00000000)  returns 0x00 (0000ms, 0449ms total)
T12B4 000:679 JLINK_WriteReg(R12, 0x00000000)  returns 0x00 (0000ms, 0449ms total)
T12B4 000:679 JLINK_WriteReg(R13 (SP), 0x20000800)  returns 0x00 (0000ms, 0449ms total)
T12B4 000:679 JLINK_WriteReg(R14, 0x20000001)  returns 0x00 (0000ms, 0449ms total)
T12B4 000:679 JLINK_WriteReg(R15 (PC), 0x200000F4)  returns 0x00 (0000ms, 0449ms total)
T12B4 000:679 JLINK_WriteReg(XPSR, 0x01000000)  returns 0x00 (0000ms, 0449ms total)
T12B4 000:679 JLINK_WriteReg(MSP, 0x20000800)  returns 0x00 (0000ms, 0449ms total)
T12B4 000:679 JLINK_WriteReg(PSP, 0x20000800)  returns 0x00 (0000ms, 0449ms total)
T12B4 000:680 JLINK_WriteReg(CFBP, 0x00000000)  returns 0x00 (0000ms, 0450ms total)
T12B4 000:680 JLINK_SetBPEx(Addr = 0x20000000, Type = 0xFFFFFFF2)  returns 0x00000005 (0000ms, 0450ms total)
T12B4 000:680 JLINK_Go() -- CPU_ReadMem(4 bytes @ 0xE0001000) (0004ms, 0454ms total)
T12B4 000:684 JLINK_IsHalted()  returns FALSE (0001ms, 0455ms total)
T12B4 000:704 JLINK_IsHalted()  returns FALSE (0001ms, 0455ms total)
T12B4 000:706 JLINK_IsHalted()  returns FALSE (0001ms, 0455ms total)
T12B4 000:708 JLINK_IsHalted()  returns FALSE (0001ms, 0455ms total)
T12B4 000:712 JLINK_IsHalted()  returns FALSE (0001ms, 0455ms total)
T12B4 000:714 JLINK_IsHalted()  returns FALSE (0001ms, 0455ms total)
T12B4 000:716 JLINK_IsHalted() -- CPU_ReadMem(2 bytes @ 0x20000000)  returns TRUE (0005ms, 0459ms total)
T12B4 000:721 JLINK_ReadReg(R15 (PC))  returns 0x20000000 (0000ms, 0454ms total)
T12B4 000:721 JLINK_ClrBPEx(BPHandle = 0x00000005)  returns 0x00 (0000ms, 0454ms total)
T12B4 000:721 JLINK_ReadReg(R0)  returns 0x00000000 (0000ms, 0454ms total)
T12B4 000:722 JLINK_WriteMem(0x20000164, 0x0400 Bytes, ...) - Data: AD 00 05 F1 E0 25 C5 F8 00 41 09 E0 04 78 04 F0 ... -- CPU_WriteMem(1024 bytes @ 0x20000164)  returns 0x400 (0013ms, 0467ms total)
T12B4 000:735 JLINK_WriteReg(R0, 0x08000400)  returns 0x00 (0000ms, 0467ms total)
T12B4 000:735 JLINK_WriteReg(R1, 0x00000400)  returns 0x00 (0000ms, 0467ms total)
T12B4 000:735 JLINK_WriteReg(R2, 0x20000164)  returns 0x00 (0000ms, 0467ms total)
T12B4 000:735 JLINK_WriteReg(R3, 0x00000000)  returns 0x00 (0000ms, 0467ms total)
T12B4 000:735 JLINK_WriteReg(R4, 0x00000000)  returns 0x00 (0000ms, 0467ms total)
T12B4 000:735 JLINK_WriteReg(R5, 0x00000000)  returns 0x00 (0000ms, 0467ms total)
T12B4 000:735 JLINK_WriteReg(R6, 0x00000000)  returns 0x00 (0000ms, 0467ms total)
T12B4 000:735 JLINK_WriteReg(R7, 0x00000000)  returns 0x00 (0000ms, 0467ms total)
T12B4 000:735 JLINK_WriteReg(R8, 0x00000000)  returns 0x00 (0000ms, 0467ms total)
T12B4 000:735 JLINK_WriteReg(R9, 0x20000160)  returns 0x00 (0000ms, 0467ms total)
T12B4 000:735 JLINK_WriteReg(R10, 0x00000000)  returns 0x00 (0000ms, 0467ms total)
T12B4 000:735 JLINK_WriteReg(R11, 0x00000000)  returns 0x00 (0000ms, 0467ms total)
T12B4 000:735 JLINK_WriteReg(R12, 0x00000000)  returns 0x00 (0000ms, 0467ms total)
T12B4 000:735 JLINK_WriteReg(R13 (SP), 0x20000800)  returns 0x00 (0000ms, 0467ms total)
T12B4 000:735 JLINK_WriteReg(R14, 0x20000001)  returns 0x00 (0000ms, 0467ms total)
T12B4 000:735 JLINK_WriteReg(R15 (PC), 0x200000F4)  returns 0x00 (0000ms, 0467ms total)
T12B4 000:735 JLINK_WriteReg(XPSR, 0x01000000)  returns 0x00 (0000ms, 0467ms total)
T12B4 000:735 JLINK_WriteReg(MSP, 0x20000800)  returns 0x00 (0001ms, 0468ms total)
T12B4 000:736 JLINK_WriteReg(PSP, 0x20000800)  returns 0x00 (0000ms, 0468ms total)
T12B4 000:736 JLINK_WriteReg(CFBP, 0x00000000)  returns 0x00 (0000ms, 0468ms total)
T12B4 000:736 JLINK_SetBPEx(Addr = 0x20000000, Type = 0xFFFFFFF2)  returns 0x00000006 (0000ms, 0468ms total)
T12B4 000:736 JLINK_Go() -- CPU_ReadMem(4 bytes @ 0xE0001000) (0004ms, 0472ms total)
T12B4 000:740 JLINK_IsHalted()  returns FALSE (0001ms, 0473ms total)
T12B4 000:746 JLINK_IsHalted()  returns FALSE (0001ms, 0473ms total)
T12B4 000:748 JLINK_IsHalted()  returns FALSE (0001ms, 0473ms total)
T12B4 000:750 JLINK_IsHalted()  returns FALSE (0001ms, 0473ms total)
T12B4 000:752 JLINK_IsHalted()  returns FALSE (0001ms, 0473ms total)
T12B4 000:754 JLINK_IsHalted()  returns FALSE (0001ms, 0473ms total)
T12B4 000:756 JLINK_IsHalted()  returns FALSE (0001ms, 0473ms total)
T12B4 000:758 JLINK_IsHalted()  returns FALSE (0001ms, 0473ms total)
T12B4 000:760 JLINK_IsHalted()  returns FALSE (0001ms, 0473ms total)
T12B4 000:762 JLINK_IsHalted()  returns FALSE (0001ms, 0474ms total)
T12B4 000:764 JLINK_IsHalted()  returns FALSE (0001ms, 0474ms total)
T12B4 000:766 JLINK_IsHalted()  returns FALSE (0001ms, 0474ms total)
T12B4 000:768 JLINK_IsHalted()  returns FALSE (0001ms, 0474ms total)
T12B4 000:770 JLINK_IsHalted()  returns FALSE (0001ms, 0474ms total)
T12B4 000:772 JLINK_IsHalted() -- CPU_ReadMem(2 bytes @ 0x20000000)  returns TRUE (0005ms, 0478ms total)
T12B4 000:777 JLINK_ReadReg(R15 (PC))  returns 0x20000000 (0000ms, 0473ms total)
T12B4 000:777 JLINK_ClrBPEx(BPHandle = 0x00000006)  returns 0x00 (0000ms, 0473ms total)
T12B4 000:777 JLINK_ReadReg(R0)  returns 0x00000000 (0000ms, 0473ms total)
T12B4 000:778 JLINK_WriteMem(0x20000164, 0x0400 Bytes, ...) - Data: 76 49 08 61 08 46 00 69 40 F0 10 00 08 61 76 48 ... -- CPU_WriteMem(1024 bytes @ 0x20000164)  returns 0x400 (0013ms, 0486ms total)
T12B4 000:791 JLINK_WriteReg(R0, 0x08000800)  returns 0x00 (0000ms, 0486ms total)
T12B4 000:791 JLINK_WriteReg(R1, 0x00000400)  returns 0x00 (0000ms, 0486ms total)
T12B4 000:791 JLINK_WriteReg(R2, 0x20000164)  returns 0x00 (0000ms, 0486ms total)
T12B4 000:791 JLINK_WriteReg(R3, 0x00000000)  returns 0x00 (0000ms, 0486ms total)
T12B4 000:791 JLINK_WriteReg(R4, 0x00000000)  returns 0x00 (0000ms, 0486ms total)
T12B4 000:791 JLINK_WriteReg(R5, 0x00000000)  returns 0x00 (0000ms, 0486ms total)
T12B4 000:791 JLINK_WriteReg(R6, 0x00000000)  returns 0x00 (0000ms, 0486ms total)
T12B4 000:791 JLINK_WriteReg(R7, 0x00000000)  returns 0x00 (0000ms, 0486ms total)
T12B4 000:791 JLINK_WriteReg(R8, 0x00000000)  returns 0x00 (0000ms, 0486ms total)
T12B4 000:791 JLINK_WriteReg(R9, 0x20000160)  returns 0x00 (0000ms, 0486ms total)
T12B4 000:791 JLINK_WriteReg(R10, 0x00000000)  returns 0x00 (0000ms, 0486ms total)
T12B4 000:791 JLINK_WriteReg(R11, 0x00000000)  returns 0x00 (0000ms, 0486ms total)
T12B4 000:791 JLINK_WriteReg(R12, 0x00000000)  returns 0x00 (0000ms, 0486ms total)
T12B4 000:791 JLINK_WriteReg(R13 (SP), 0x20000800)  returns 0x00 (0000ms, 0486ms total)
T12B4 000:791 JLINK_WriteReg(R14, 0x20000001)  returns 0x00 (0000ms, 0486ms total)
T12B4 000:791 JLINK_WriteReg(R15 (PC), 0x200000F4)  returns 0x00 (0000ms, 0486ms total)
T12B4 000:791 JLINK_WriteReg(XPSR, 0x01000000)  returns 0x00 (0000ms, 0486ms total)
T12B4 000:792 JLINK_WriteReg(MSP, 0x20000800)  returns 0x00 (0000ms, 0487ms total)
T12B4 000:792 JLINK_WriteReg(PSP, 0x20000800)  returns 0x00 (0000ms, 0487ms total)
T12B4 000:792 JLINK_WriteReg(CFBP, 0x00000000)  returns 0x00 (0000ms, 0487ms total)
T12B4 000:792 JLINK_SetBPEx(Addr = 0x20000000, Type = 0xFFFFFFF2)  returns 0x00000007 (0000ms, 0487ms total)
T12B4 000:792 JLINK_Go() -- CPU_ReadMem(4 bytes @ 0xE0001000) (0004ms, 0491ms total)
T12B4 000:796 JLINK_IsHalted()  returns FALSE (0001ms, 0492ms total)
T12B4 000:798 JLINK_IsHalted()  returns FALSE (0001ms, 0492ms total)
T12B4 000:800 JLINK_IsHalted()  returns FALSE (0001ms, 0492ms total)
T12B4 000:802 JLINK_IsHalted()  returns FALSE (0001ms, 0492ms total)
T12B4 000:804 JLINK_IsHalted()  returns FALSE (0001ms, 0492ms total)
T12B4 000:806 JLINK_IsHalted()  returns FALSE (0001ms, 0492ms total)
T12B4 000:808 JLINK_IsHalted()  returns FALSE (0001ms, 0492ms total)
T12B4 000:810 JLINK_IsHalted()  returns FALSE (0001ms, 0492ms total)
T12B4 000:812 JLINK_IsHalted()  returns FALSE (0001ms, 0492ms total)
T12B4 000:814 JLINK_IsHalted()  returns FALSE (0001ms, 0492ms total)
T12B4 000:816 JLINK_IsHalted()  returns FALSE (0001ms, 0492ms total)
T12B4 000:818 JLINK_IsHalted()  returns FALSE (0001ms, 0493ms total)
T12B4 000:820 JLINK_IsHalted()  returns FALSE (0001ms, 0493ms total)
T12B4 000:822 JLINK_IsHalted()  returns FALSE (0001ms, 0493ms total)
T12B4 000:824 JLINK_IsHalted()  returns FALSE (0001ms, 0493ms total)
T12B4 000:826 JLINK_IsHalted()  returns FALSE (0001ms, 0493ms total)
T12B4 000:828 JLINK_IsHalted() -- CPU_ReadMem(2 bytes @ 0x20000000)  returns TRUE (0005ms, 0497ms total)
T12B4 000:833 JLINK_ReadReg(R15 (PC))  returns 0x20000000 (0000ms, 0492ms total)
T12B4 000:833 JLINK_ClrBPEx(BPHandle = 0x00000007)  returns 0x00 (0000ms, 0492ms total)
T12B4 000:833 JLINK_ReadReg(R0)  returns 0x00000000 (0000ms, 0492ms total)
T12B4 000:834 JLINK_WriteMem(0x20000164, 0x0400 Bytes, ...) - Data: 08 D1 01 21 40 20 00 F0 1D FB 00 21 40 20 00 F0 ... -- CPU_WriteMem(1024 bytes @ 0x20000164)  returns 0x400 (0013ms, 0505ms total)
T12B4 000:847 JLINK_WriteReg(R0, 0x08000C00)  returns 0x00 (0000ms, 0505ms total)
T12B4 000:847 JLINK_WriteReg(R1, 0x00000400)  returns 0x00 (0000ms, 0505ms total)
T12B4 000:847 JLINK_WriteReg(R2, 0x20000164)  returns 0x00 (0000ms, 0505ms total)
T12B4 000:847 JLINK_WriteReg(R3, 0x00000000)  returns 0x00 (0000ms, 0505ms total)
T12B4 000:847 JLINK_WriteReg(R4, 0x00000000)  returns 0x00 (0000ms, 0505ms total)
T12B4 000:847 JLINK_WriteReg(R5, 0x00000000)  returns 0x00 (0000ms, 0505ms total)
T12B4 000:847 JLINK_WriteReg(R6, 0x00000000)  returns 0x00 (0000ms, 0505ms total)
T12B4 000:847 JLINK_WriteReg(R7, 0x00000000)  returns 0x00 (0000ms, 0505ms total)
T12B4 000:847 JLINK_WriteReg(R8, 0x00000000)  returns 0x00 (0000ms, 0505ms total)
T12B4 000:847 JLINK_WriteReg(R9, 0x20000160)  returns 0x00 (0000ms, 0505ms total)
T12B4 000:847 JLINK_WriteReg(R10, 0x00000000)  returns 0x00 (0000ms, 0505ms total)
T12B4 000:847 JLINK_WriteReg(R11, 0x00000000)  returns 0x00 (0000ms, 0505ms total)
T12B4 000:847 JLINK_WriteReg(R12, 0x00000000)  returns 0x00 (0000ms, 0505ms total)
T12B4 000:847 JLINK_WriteReg(R13 (SP), 0x20000800)  returns 0x00 (0000ms, 0505ms total)
T12B4 000:847 JLINK_WriteReg(R14, 0x20000001)  returns 0x00 (0000ms, 0505ms total)
T12B4 000:847 JLINK_WriteReg(R15 (PC), 0x200000F4)  returns 0x00 (0000ms, 0505ms total)
T12B4 000:847 JLINK_WriteReg(XPSR, 0x01000000)  returns 0x00 (0000ms, 0505ms total)
T12B4 000:847 JLINK_WriteReg(MSP, 0x20000800)  returns 0x00 (0001ms, 0506ms total)
T12B4 000:848 JLINK_WriteReg(PSP, 0x20000800)  returns 0x00 (0000ms, 0506ms total)
T12B4 000:848 JLINK_WriteReg(CFBP, 0x00000000)  returns 0x00 (0000ms, 0506ms total)
T12B4 000:848 JLINK_SetBPEx(Addr = 0x20000000, Type = 0xFFFFFFF2)  returns 0x00000008 (0000ms, 0506ms total)
T12B4 000:848 JLINK_Go() -- CPU_ReadMem(4 bytes @ 0xE0001000) (0004ms, 0510ms total)
T12B4 000:852 JLINK_IsHalted()  returns FALSE (0001ms, 0511ms total)
T12B4 000:865 JLINK_IsHalted()  returns FALSE (0001ms, 0511ms total)
T12B4 000:867 JLINK_IsHalted()  returns FALSE (0001ms, 0511ms total)
T12B4 000:869 JLINK_IsHalted()  returns FALSE (0001ms, 0511ms total)
T12B4 000:871 JLINK_IsHalted()  returns FALSE (0001ms, 0511ms total)
T12B4 000:873 JLINK_IsHalted()  returns FALSE (0001ms, 0511ms total)
T12B4 000:875 JLINK_IsHalted()  returns FALSE (0001ms, 0511ms total)
T12B4 000:877 JLINK_IsHalted()  returns FALSE (0001ms, 0511ms total)
T12B4 000:879 JLINK_IsHalted()  returns FALSE (0001ms, 0511ms total)
T12B4 000:881 JLINK_IsHalted()  returns FALSE (0001ms, 0511ms total)
T12B4 000:883 JLINK_IsHalted() -- CPU_ReadMem(2 bytes @ 0x20000000)  returns TRUE (0005ms, 0515ms total)
T12B4 000:888 JLINK_ReadReg(R15 (PC))  returns 0x20000000 (0000ms, 0510ms total)
T12B4 000:888 JLINK_ClrBPEx(BPHandle = 0x00000008)  returns 0x00 (0000ms, 0510ms total)
T12B4 000:888 JLINK_ReadReg(R0)  returns 0x00000000 (0000ms, 0510ms total)
T12B4 000:889 JLINK_WriteMem(0x20000164, 0x0400 Bytes, ...) - Data: FF F7 DB FF 05 46 00 98 40 1C 00 90 00 98 B0 F5 ... -- CPU_WriteMem(1024 bytes @ 0x20000164)  returns 0x400 (0013ms, 0523ms total)
T12B4 000:902 JLINK_WriteReg(R0, 0x08001000)  returns 0x00 (0000ms, 0523ms total)
T12B4 000:902 JLINK_WriteReg(R1, 0x00000400)  returns 0x00 (0000ms, 0523ms total)
T12B4 000:902 JLINK_WriteReg(R2, 0x20000164)  returns 0x00 (0000ms, 0523ms total)
T12B4 000:902 JLINK_WriteReg(R3, 0x00000000)  returns 0x00 (0000ms, 0523ms total)
T12B4 000:902 JLINK_WriteReg(R4, 0x00000000)  returns 0x00 (0000ms, 0523ms total)
T12B4 000:902 JLINK_WriteReg(R5, 0x00000000)  returns 0x00 (0000ms, 0523ms total)
T12B4 000:902 JLINK_WriteReg(R6, 0x00000000)  returns 0x00 (0000ms, 0523ms total)
T12B4 000:902 JLINK_WriteReg(R7, 0x00000000)  returns 0x00 (0000ms, 0523ms total)
T12B4 000:902 JLINK_WriteReg(R8, 0x00000000)  returns 0x00 (0000ms, 0523ms total)
T12B4 000:902 JLINK_WriteReg(R9, 0x20000160)  returns 0x00 (0000ms, 0523ms total)
T12B4 000:902 JLINK_WriteReg(R10, 0x00000000)  returns 0x00 (0000ms, 0523ms total)
T12B4 000:902 JLINK_WriteReg(R11, 0x00000000)  returns 0x00 (0000ms, 0523ms total)
T12B4 000:902 JLINK_WriteReg(R12, 0x00000000)  returns 0x00 (0000ms, 0523ms total)
T12B4 000:902 JLINK_WriteReg(R13 (SP), 0x20000800)  returns 0x00 (0000ms, 0523ms total)
T12B4 000:902 JLINK_WriteReg(R14, 0x20000001)  returns 0x00 (0000ms, 0523ms total)
T12B4 000:903 JLINK_WriteReg(R15 (PC), 0x200000F4)  returns 0x00 (0000ms, 0523ms total)
T12B4 000:903 JLINK_WriteReg(XPSR, 0x01000000)  returns 0x00 (0000ms, 0523ms total)
T12B4 000:903 JLINK_WriteReg(MSP, 0x20000800)  returns 0x00 (0000ms, 0523ms total)
T12B4 000:903 JLINK_WriteReg(PSP, 0x20000800)  returns 0x00 (0000ms, 0523ms total)
T12B4 000:903 JLINK_WriteReg(CFBP, 0x00000000)  returns 0x00 (0000ms, 0523ms total)
T12B4 000:903 JLINK_SetBPEx(Addr = 0x20000000, Type = 0xFFFFFFF2)  returns 0x00000009 (0000ms, 0523ms total)
T12B4 000:903 JLINK_Go() -- CPU_ReadMem(4 bytes @ 0xE0001000) (0004ms, 0527ms total)
T12B4 000:907 JLINK_IsHalted()  returns FALSE (0001ms, 0528ms total)
T12B4 000:909 JLINK_IsHalted()  returns FALSE (0001ms, 0528ms total)
T12B4 000:911 JLINK_IsHalted()  returns FALSE (0001ms, 0528ms total)
T12B4 000:913 JLINK_IsHalted()  returns FALSE (0001ms, 0528ms total)
T12B4 000:915 JLINK_IsHalted()  returns FALSE (0001ms, 0528ms total)
T12B4 000:917 JLINK_IsHalted()  returns FALSE (0001ms, 0528ms total)
T12B4 000:919 JLINK_IsHalted()  returns FALSE (0001ms, 0528ms total)
T12B4 000:921 JLINK_IsHalted()  returns FALSE (0001ms, 0528ms total)
T12B4 000:923 JLINK_IsHalted()  returns FALSE (0001ms, 0528ms total)
T12B4 000:925 JLINK_IsHalted()  returns FALSE (0001ms, 0528ms total)
T12B4 000:927 JLINK_IsHalted()  returns FALSE (0001ms, 0528ms total)
T12B4 000:929 JLINK_IsHalted()  returns FALSE (0001ms, 0528ms total)
T12B4 000:931 JLINK_IsHalted()  returns FALSE (0001ms, 0528ms total)
T12B4 000:933 JLINK_IsHalted()  returns FALSE (0001ms, 0528ms total)
T12B4 000:935 JLINK_IsHalted()  returns FALSE (0001ms, 0528ms total)
T12B4 000:937 JLINK_IsHalted()  returns FALSE (0001ms, 0528ms total)
T12B4 000:939 JLINK_IsHalted() -- CPU_ReadMem(2 bytes @ 0x20000000)  returns TRUE (0005ms, 0532ms total)
T12B4 000:944 JLINK_ReadReg(R15 (PC))  returns 0x20000000 (0000ms, 0527ms total)
T12B4 000:944 JLINK_ClrBPEx(BPHandle = 0x00000009)  returns 0x00 (0000ms, 0527ms total)
T12B4 000:944 JLINK_ReadReg(R0)  returns 0x00000000 (0000ms, 0527ms total)
T12B4 000:945 JLINK_WriteMem(0x20000164, 0x0400 Bytes, ...) - Data: 3D E0 C0 48 84 42 08 D1 01 21 80 20 FF F7 27 FF ... -- CPU_WriteMem(1024 bytes @ 0x20000164)  returns 0x400 (0013ms, 0540ms total)
T12B4 000:958 JLINK_WriteReg(R0, 0x08001400)  returns 0x00 (0000ms, 0540ms total)
T12B4 000:958 JLINK_WriteReg(R1, 0x00000400)  returns 0x00 (0000ms, 0540ms total)
T12B4 000:958 JLINK_WriteReg(R2, 0x20000164)  returns 0x00 (0000ms, 0540ms total)
T12B4 000:958 JLINK_WriteReg(R3, 0x00000000)  returns 0x00 (0000ms, 0540ms total)
T12B4 000:958 JLINK_WriteReg(R4, 0x00000000)  returns 0x00 (0000ms, 0540ms total)
T12B4 000:958 JLINK_WriteReg(R5, 0x00000000)  returns 0x00 (0000ms, 0540ms total)
T12B4 000:958 JLINK_WriteReg(R6, 0x00000000)  returns 0x00 (0000ms, 0540ms total)
T12B4 000:958 JLINK_WriteReg(R7, 0x00000000)  returns 0x00 (0000ms, 0540ms total)
T12B4 000:958 JLINK_WriteReg(R8, 0x00000000)  returns 0x00 (0000ms, 0540ms total)
T12B4 000:958 JLINK_WriteReg(R9, 0x20000160)  returns 0x00 (0000ms, 0540ms total)
T12B4 000:958 JLINK_WriteReg(R10, 0x00000000)  returns 0x00 (0000ms, 0540ms total)
T12B4 000:958 JLINK_WriteReg(R11, 0x00000000)  returns 0x00 (0000ms, 0540ms total)
T12B4 000:958 JLINK_WriteReg(R12, 0x00000000)  returns 0x00 (0000ms, 0540ms total)
T12B4 000:958 JLINK_WriteReg(R13 (SP), 0x20000800)  returns 0x00 (0000ms, 0540ms total)
T12B4 000:958 JLINK_WriteReg(R14, 0x20000001)  returns 0x00 (0001ms, 0541ms total)
T12B4 000:959 JLINK_WriteReg(R15 (PC), 0x200000F4)  returns 0x00 (0000ms, 0541ms total)
T12B4 000:959 JLINK_WriteReg(XPSR, 0x01000000)  returns 0x00 (0000ms, 0541ms total)
T12B4 000:959 JLINK_WriteReg(MSP, 0x20000800)  returns 0x00 (0000ms, 0541ms total)
T12B4 000:959 JLINK_WriteReg(PSP, 0x20000800)  returns 0x00 (0000ms, 0541ms total)
T12B4 000:959 JLINK_WriteReg(CFBP, 0x00000000)  returns 0x00 (0000ms, 0541ms total)
T12B4 000:959 JLINK_SetBPEx(Addr = 0x20000000, Type = 0xFFFFFFF2)  returns 0x0000000A (0000ms, 0541ms total)
T12B4 000:959 JLINK_Go() -- CPU_ReadMem(4 bytes @ 0xE0001000) (0004ms, 0545ms total)
T12B4 000:963 JLINK_IsHalted()  returns FALSE (0001ms, 0546ms total)
T12B4 000:970 JLINK_IsHalted()  returns FALSE (0001ms, 0546ms total)
T12B4 000:972 JLINK_IsHalted()  returns FALSE (0001ms, 0546ms total)
T12B4 000:976 JLINK_IsHalted()  returns FALSE (0001ms, 0546ms total)
T12B4 000:978 JLINK_IsHalted()  returns FALSE (0001ms, 0546ms total)
T12B4 000:980 JLINK_IsHalted()  returns FALSE (0001ms, 0546ms total)
T12B4 000:986 JLINK_IsHalted()  returns FALSE (0001ms, 0546ms total)
T12B4 000:988 JLINK_IsHalted()  returns FALSE (0001ms, 0546ms total)
T12B4 000:992 JLINK_IsHalted()  returns FALSE (0001ms, 0546ms total)
T12B4 000:994 JLINK_IsHalted() -- CPU_ReadMem(2 bytes @ 0x20000000)  returns TRUE (0005ms, 0550ms total)
T12B4 000:999 JLINK_ReadReg(R15 (PC))  returns 0x20000000 (0000ms, 0545ms total)
T12B4 000:999 JLINK_ClrBPEx(BPHandle = 0x0000000A)  returns 0x00 (0000ms, 0545ms total)
T12B4 000:999 JLINK_ReadReg(R0)  returns 0x00000000 (0000ms, 0545ms total)
T12B4 001:000 JLINK_WriteMem(0x20000164, 0x0400 Bytes, ...) - Data: 82 8B 4F F6 F3 73 1A 40 82 83 82 8B 0A 43 82 83 ... -- CPU_WriteMem(1024 bytes @ 0x20000164)  returns 0x400 (0013ms, 0558ms total)
T12B4 001:013 JLINK_WriteReg(R0, 0x08001800)  returns 0x00 (0000ms, 0558ms total)
T12B4 001:013 JLINK_WriteReg(R1, 0x00000400)  returns 0x00 (0000ms, 0558ms total)
T12B4 001:013 JLINK_WriteReg(R2, 0x20000164)  returns 0x00 (0000ms, 0558ms total)
T12B4 001:013 JLINK_WriteReg(R3, 0x00000000)  returns 0x00 (0000ms, 0558ms total)
T12B4 001:013 JLINK_WriteReg(R4, 0x00000000)  returns 0x00 (0000ms, 0558ms total)
T12B4 001:013 JLINK_WriteReg(R5, 0x00000000)  returns 0x00 (0000ms, 0558ms total)
T12B4 001:013 JLINK_WriteReg(R6, 0x00000000)  returns 0x00 (0000ms, 0558ms total)
T12B4 001:013 JLINK_WriteReg(R7, 0x00000000)  returns 0x00 (0000ms, 0558ms total)
T12B4 001:013 JLINK_WriteReg(R8, 0x00000000)  returns 0x00 (0000ms, 0558ms total)
T12B4 001:013 JLINK_WriteReg(R9, 0x20000160)  returns 0x00 (0000ms, 0558ms total)
T12B4 001:013 JLINK_WriteReg(R10, 0x00000000)  returns 0x00 (0000ms, 0558ms total)
T12B4 001:013 JLINK_WriteReg(R11, 0x00000000)  returns 0x00 (0000ms, 0558ms total)
T12B4 001:013 JLINK_WriteReg(R12, 0x00000000)  returns 0x00 (0000ms, 0558ms total)
T12B4 001:013 JLINK_WriteReg(R13 (SP), 0x20000800)  returns 0x00 (0000ms, 0558ms total)
T12B4 001:013 JLINK_WriteReg(R14, 0x20000001)  returns 0x00 (0000ms, 0558ms total)
T12B4 001:013 JLINK_WriteReg(R15 (PC), 0x200000F4)  returns 0x00 (0000ms, 0558ms total)
T12B4 001:013 JLINK_WriteReg(XPSR, 0x01000000)  returns 0x00 (0000ms, 0558ms total)
T12B4 001:013 JLINK_WriteReg(MSP, 0x20000800)  returns 0x00 (0001ms, 0559ms total)
T12B4 001:014 JLINK_WriteReg(PSP, 0x20000800)  returns 0x00 (0000ms, 0559ms total)
T12B4 001:014 JLINK_WriteReg(CFBP, 0x00000000)  returns 0x00 (0000ms, 0559ms total)
T12B4 001:014 JLINK_SetBPEx(Addr = 0x20000000, Type = 0xFFFFFFF2)  returns 0x0000000B (0000ms, 0559ms total)
T12B4 001:014 JLINK_Go() -- CPU_ReadMem(4 bytes @ 0xE0001000) (0004ms, 0563ms total)
T12B4 001:018 JLINK_IsHalted()  returns FALSE (0001ms, 0564ms total)
T12B4 001:024 JLINK_IsHalted()  returns FALSE (0001ms, 0564ms total)
T12B4 001:026 JLINK_IsHalted()  returns FALSE (0001ms, 0564ms total)
T12B4 001:028 JLINK_IsHalted()  returns FALSE (0001ms, 0564ms total)
T12B4 001:030 JLINK_IsHalted()  returns FALSE (0001ms, 0564ms total)
T12B4 001:032 JLINK_IsHalted()  returns FALSE (0001ms, 0564ms total)
T12B4 001:034 JLINK_IsHalted()  returns FALSE (0001ms, 0564ms total)
T12B4 001:036 JLINK_IsHalted()  returns FALSE (0001ms, 0564ms total)
T12B4 001:040 JLINK_IsHalted()  returns FALSE (0001ms, 0564ms total)
T12B4 001:042 JLINK_IsHalted()  returns FALSE (0001ms, 0564ms total)
T12B4 001:044 JLINK_IsHalted()  returns FALSE (0001ms, 0564ms total)
T12B4 001:046 JLINK_IsHalted()  returns FALSE (0001ms, 0564ms total)
T12B4 001:048 JLINK_IsHalted()  returns FALSE (0001ms, 0564ms total)
T12B4 001:050 JLINK_IsHalted() -- CPU_ReadMem(2 bytes @ 0x20000000)  returns TRUE (0005ms, 0568ms total)
T12B4 001:055 JLINK_ReadReg(R15 (PC))  returns 0x20000000 (0000ms, 0563ms total)
T12B4 001:055 JLINK_ClrBPEx(BPHandle = 0x0000000B)  returns 0x00 (0000ms, 0563ms total)
T12B4 001:055 JLINK_ReadReg(R0)  returns 0x00000000 (0000ms, 0563ms total)
T12B4 001:056 JLINK_WriteMem(0x20000164, 0x0400 Bytes, ...) - Data: 29 46 20 46 FF F7 D2 FF 20 89 40 F0 07 00 20 81 ... -- CPU_WriteMem(1024 bytes @ 0x20000164)  returns 0x400 (0013ms, 0576ms total)
T12B4 001:070 JLINK_WriteReg(R0, 0x08001C00)  returns 0x00 (0000ms, 0576ms total)
T12B4 001:070 JLINK_WriteReg(R1, 0x00000400)  returns 0x00 (0000ms, 0576ms total)
T12B4 001:070 JLINK_WriteReg(R2, 0x20000164)  returns 0x00 (0000ms, 0576ms total)
T12B4 001:070 JLINK_WriteReg(R3, 0x00000000)  returns 0x00 (0000ms, 0576ms total)
T12B4 001:070 JLINK_WriteReg(R4, 0x00000000)  returns 0x00 (0000ms, 0576ms total)
T12B4 001:070 JLINK_WriteReg(R5, 0x00000000)  returns 0x00 (0000ms, 0576ms total)
T12B4 001:070 JLINK_WriteReg(R6, 0x00000000)  returns 0x00 (0000ms, 0576ms total)
T12B4 001:070 JLINK_WriteReg(R7, 0x00000000)  returns 0x00 (0000ms, 0576ms total)
T12B4 001:070 JLINK_WriteReg(R8, 0x00000000)  returns 0x00 (0000ms, 0576ms total)
T12B4 001:070 JLINK_WriteReg(R9, 0x20000160)  returns 0x00 (0000ms, 0576ms total)
T12B4 001:070 JLINK_WriteReg(R10, 0x00000000)  returns 0x00 (0000ms, 0576ms total)
T12B4 001:070 JLINK_WriteReg(R11, 0x00000000)  returns 0x00 (0000ms, 0576ms total)
T12B4 001:070 JLINK_WriteReg(R12, 0x00000000)  returns 0x00 (0000ms, 0576ms total)
T12B4 001:070 JLINK_WriteReg(R13 (SP), 0x20000800)  returns 0x00 (0000ms, 0576ms total)
T12B4 001:070 JLINK_WriteReg(R14, 0x20000001)  returns 0x00 (0000ms, 0576ms total)
T12B4 001:070 JLINK_WriteReg(R15 (PC), 0x200000F4)  returns 0x00 (0000ms, 0576ms total)
T12B4 001:070 JLINK_WriteReg(XPSR, 0x01000000)  returns 0x00 (0000ms, 0576ms total)
T12B4 001:070 JLINK_WriteReg(MSP, 0x20000800)  returns 0x00 (0000ms, 0576ms total)
T12B4 001:070 JLINK_WriteReg(PSP, 0x20000800)  returns 0x00 (0000ms, 0576ms total)
T12B4 001:070 JLINK_WriteReg(CFBP, 0x00000000)  returns 0x00 (0000ms, 0576ms total)
T12B4 001:070 JLINK_SetBPEx(Addr = 0x20000000, Type = 0xFFFFFFF2)  returns 0x0000000C (0000ms, 0576ms total)
T12B4 001:070 JLINK_Go() -- CPU_ReadMem(4 bytes @ 0xE0001000) (0005ms, 0581ms total)
T12B4 001:075 JLINK_IsHalted()  returns FALSE (0001ms, 0582ms total)
T12B4 001:079 JLINK_IsHalted()  returns FALSE (0001ms, 0582ms total)
T12B4 001:081 JLINK_IsHalted()  returns FALSE (0001ms, 0582ms total)
T12B4 001:083 JLINK_IsHalted()  returns FALSE (0001ms, 0582ms total)
T12B4 001:085 JLINK_IsHalted()  returns FALSE (0001ms, 0582ms total)
T12B4 001:087 JLINK_IsHalted()  returns FALSE (0001ms, 0582ms total)
T12B4 001:089 JLINK_IsHalted()  returns FALSE (0001ms, 0582ms total)
T12B4 001:092 JLINK_IsHalted()  returns FALSE (0001ms, 0582ms total)
T12B4 001:094 JLINK_IsHalted()  returns FALSE (0001ms, 0582ms total)
T12B4 001:096 JLINK_IsHalted()  returns FALSE (0001ms, 0582ms total)
T12B4 001:098 JLINK_IsHalted()  returns FALSE (0001ms, 0582ms total)
T12B4 001:100 JLINK_IsHalted()  returns FALSE (0001ms, 0582ms total)
T12B4 001:102 JLINK_IsHalted()  returns FALSE (0001ms, 0582ms total)
T12B4 001:106 JLINK_IsHalted() -- CPU_ReadMem(2 bytes @ 0x20000000)  returns TRUE (0005ms, 0586ms total)
T12B4 001:111 JLINK_ReadReg(R15 (PC))  returns 0x20000000 (0000ms, 0581ms total)
T12B4 001:111 JLINK_ClrBPEx(BPHandle = 0x0000000C)  returns 0x00 (0000ms, 0581ms total)
T12B4 001:111 JLINK_ReadReg(R0)  returns 0x00000000 (0000ms, 0581ms total)
T12B4 001:112 JLINK_WriteMem(0x20000164, 0x0400 Bytes, ...) - Data: 21 B1 82 88 42 F0 80 02 82 80 04 E0 82 88 4F F6 ... -- CPU_WriteMem(1024 bytes @ 0x20000164)  returns 0x400 (0013ms, 0594ms total)
T12B4 001:125 JLINK_WriteReg(R0, 0x08002000)  returns 0x00 (0000ms, 0594ms total)
T12B4 001:125 JLINK_WriteReg(R1, 0x00000400)  returns 0x00 (0000ms, 0594ms total)
T12B4 001:125 JLINK_WriteReg(R2, 0x20000164)  returns 0x00 (0000ms, 0594ms total)
T12B4 001:125 JLINK_WriteReg(R3, 0x00000000)  returns 0x00 (0000ms, 0594ms total)
T12B4 001:125 JLINK_WriteReg(R4, 0x00000000)  returns 0x00 (0000ms, 0594ms total)
T12B4 001:125 JLINK_WriteReg(R5, 0x00000000)  returns 0x00 (0000ms, 0594ms total)
T12B4 001:125 JLINK_WriteReg(R6, 0x00000000)  returns 0x00 (0000ms, 0594ms total)
T12B4 001:125 JLINK_WriteReg(R7, 0x00000000)  returns 0x00 (0000ms, 0594ms total)
T12B4 001:125 JLINK_WriteReg(R8, 0x00000000)  returns 0x00 (0000ms, 0594ms total)
T12B4 001:125 JLINK_WriteReg(R9, 0x20000160)  returns 0x00 (0000ms, 0594ms total)
T12B4 001:125 JLINK_WriteReg(R10, 0x00000000)  returns 0x00 (0000ms, 0594ms total)
T12B4 001:125 JLINK_WriteReg(R11, 0x00000000)  returns 0x00 (0000ms, 0594ms total)
T12B4 001:125 JLINK_WriteReg(R12, 0x00000000)  returns 0x00 (0000ms, 0594ms total)
T12B4 001:125 JLINK_WriteReg(R13 (SP), 0x20000800)  returns 0x00 (0000ms, 0594ms total)
T12B4 001:125 JLINK_WriteReg(R14, 0x20000001)  returns 0x00 (0000ms, 0594ms total)
T12B4 001:125 JLINK_WriteReg(R15 (PC), 0x200000F4)  returns 0x00 (0000ms, 0594ms total)
T12B4 001:125 JLINK_WriteReg(XPSR, 0x01000000)  returns 0x00 (0000ms, 0594ms total)
T12B4 001:125 JLINK_WriteReg(MSP, 0x20000800)  returns 0x00 (0000ms, 0594ms total)
T12B4 001:125 JLINK_WriteReg(PSP, 0x20000800)  returns 0x00 (0000ms, 0594ms total)
T12B4 001:125 JLINK_WriteReg(CFBP, 0x00000000)  returns 0x00 (0000ms, 0594ms total)
T12B4 001:125 JLINK_SetBPEx(Addr = 0x20000000, Type = 0xFFFFFFF2)  returns 0x0000000D (0000ms, 0594ms total)
T12B4 001:125 JLINK_Go() -- CPU_ReadMem(4 bytes @ 0xE0001000) (0005ms, 0599ms total)
T12B4 001:130 JLINK_IsHalted()  returns FALSE (0001ms, 0600ms total)
T12B4 001:132 JLINK_IsHalted()  returns FALSE (0001ms, 0600ms total)
T12B4 001:134 JLINK_IsHalted()  returns FALSE (0001ms, 0600ms total)
T12B4 001:136 JLINK_IsHalted()  returns FALSE (0001ms, 0600ms total)
T12B4 001:138 JLINK_IsHalted()  returns FALSE (0001ms, 0600ms total)
T12B4 001:140 JLINK_IsHalted()  returns FALSE (0001ms, 0600ms total)
T12B4 001:142 JLINK_IsHalted()  returns FALSE (0001ms, 0600ms total)
T12B4 001:144 JLINK_IsHalted()  returns FALSE (0001ms, 0600ms total)
T12B4 001:146 JLINK_IsHalted()  returns FALSE (0001ms, 0600ms total)
T12B4 001:148 JLINK_IsHalted()  returns FALSE (0001ms, 0600ms total)
T12B4 001:150 JLINK_IsHalted()  returns FALSE (0001ms, 0600ms total)
T12B4 001:154 JLINK_IsHalted()  returns FALSE (0001ms, 0600ms total)
T12B4 001:156 JLINK_IsHalted()  returns FALSE (0001ms, 0600ms total)
T12B4 001:160 JLINK_IsHalted()  returns FALSE (0001ms, 0600ms total)
T12B4 001:162 JLINK_IsHalted() -- CPU_ReadMem(2 bytes @ 0x20000000)  returns TRUE (0005ms, 0604ms total)
T12B4 001:167 JLINK_ReadReg(R15 (PC))  returns 0x20000000 (0000ms, 0599ms total)
T12B4 001:167 JLINK_ClrBPEx(BPHandle = 0x0000000D)  returns 0x00 (0000ms, 0599ms total)
T12B4 001:167 JLINK_ReadReg(R0)  returns 0x00000000 (0000ms, 0599ms total)
T12B4 001:167 JLINK_WriteMem(0x20000164, 0x0400 Bytes, ...) - Data: 10 70 64 29 09 DD 00 20 11 46 08 70 35 48 00 68 ... -- CPU_WriteMem(1024 bytes @ 0x20000164)  returns 0x400 (0014ms, 0613ms total)
T12B4 001:181 JLINK_WriteReg(R0, 0x08002400)  returns 0x00 (0000ms, 0613ms total)
T12B4 001:181 JLINK_WriteReg(R1, 0x00000400)  returns 0x00 (0000ms, 0613ms total)
T12B4 001:181 JLINK_WriteReg(R2, 0x20000164)  returns 0x00 (0000ms, 0613ms total)
T12B4 001:181 JLINK_WriteReg(R3, 0x00000000)  returns 0x00 (0000ms, 0613ms total)
T12B4 001:181 JLINK_WriteReg(R4, 0x00000000)  returns 0x00 (0000ms, 0613ms total)
T12B4 001:181 JLINK_WriteReg(R5, 0x00000000)  returns 0x00 (0000ms, 0613ms total)
T12B4 001:181 JLINK_WriteReg(R6, 0x00000000)  returns 0x00 (0000ms, 0613ms total)
T12B4 001:181 JLINK_WriteReg(R7, 0x00000000)  returns 0x00 (0000ms, 0613ms total)
T12B4 001:181 JLINK_WriteReg(R8, 0x00000000)  returns 0x00 (0000ms, 0613ms total)
T12B4 001:181 JLINK_WriteReg(R9, 0x20000160)  returns 0x00 (0000ms, 0613ms total)
T12B4 001:181 JLINK_WriteReg(R10, 0x00000000)  returns 0x00 (0000ms, 0613ms total)
T12B4 001:181 JLINK_WriteReg(R11, 0x00000000)  returns 0x00 (0000ms, 0613ms total)
T12B4 001:181 JLINK_WriteReg(R12, 0x00000000)  returns 0x00 (0000ms, 0613ms total)
T12B4 001:181 JLINK_WriteReg(R13 (SP), 0x20000800)  returns 0x00 (0000ms, 0613ms total)
T12B4 001:181 JLINK_WriteReg(R14, 0x20000001)  returns 0x00 (0000ms, 0613ms total)
T12B4 001:181 JLINK_WriteReg(R15 (PC), 0x200000F4)  returns 0x00 (0000ms, 0613ms total)
T12B4 001:181 JLINK_WriteReg(XPSR, 0x01000000)  returns 0x00 (0000ms, 0613ms total)
T12B4 001:181 JLINK_WriteReg(MSP, 0x20000800)  returns 0x00 (0000ms, 0613ms total)
T12B4 001:181 JLINK_WriteReg(PSP, 0x20000800)  returns 0x00 (0000ms, 0613ms total)
T12B4 001:181 JLINK_WriteReg(CFBP, 0x00000000)  returns 0x00 (0000ms, 0613ms total)
T12B4 001:181 JLINK_SetBPEx(Addr = 0x20000000, Type = 0xFFFFFFF2)  returns 0x0000000E (0001ms, 0614ms total)
T12B4 001:182 JLINK_Go() -- CPU_ReadMem(4 bytes @ 0xE0001000) (0004ms, 0618ms total)
T12B4 001:186 JLINK_IsHalted()  returns FALSE (0001ms, 0619ms total)
T12B4 001:194 JLINK_IsHalted()  returns FALSE (0001ms, 0619ms total)
T12B4 001:196 JLINK_IsHalted()  returns FALSE (0001ms, 0619ms total)
T12B4 001:199 JLINK_IsHalted()  returns FALSE (0001ms, 0619ms total)
T12B4 001:201 JLINK_IsHalted()  returns FALSE (0001ms, 0619ms total)
T12B4 001:203 JLINK_IsHalted()  returns FALSE (0001ms, 0619ms total)
T12B4 001:205 JLINK_IsHalted()  returns FALSE (0001ms, 0619ms total)
T12B4 001:209 JLINK_IsHalted()  returns FALSE (0001ms, 0619ms total)
T12B4 001:211 JLINK_IsHalted()  returns FALSE (0001ms, 0619ms total)
